
T40AC 000:117 SEGGER J-Link V6.14b Log File (0001ms, 0027ms total)
T40AC 000:117 DLL Compiled: Mar  9 2017 08:46:04 (0001ms, 0027ms total)
T40AC 000:117 Logging started @ 2022-06-16 20:38 (0002ms, 0028ms total)
T40AC 000:119 JLINK_SetWarnOutHandler(...) (0000ms, 0028ms total)
T40AC 000:119 JLINK_OpenEx(...)
Firmware: J-Link ARM-OB STM32 compiled Aug 22 2012 19:52:04
Hardware: V7.00
S/N: 20090928
Feature(s): RDI,FlashDL,FlashBP,JFlash,GDBFullWEBSRV Webserver running on local port 19080 (0011ms, 0039ms total)
T40AC 000:119   returns O.K. (0011ms, 0039ms total)
T40AC 000:130 JLINK_SetErrorOutHandler(...) (0000ms, 0039ms total)
T40AC 000:131 JLINK_ExecCommand("ProjectFile = "C:\Users\lagrange\Desktop\4ºÅ\4ºÅ-infantry-OmniWheel\MDK-ARM\JLinkSettings.ini"", ...). Device "ARM9" selected.  returns 0x00 (0160ms, 0199ms total)
T40AC 000:301 JLINK_ExecCommand("Device = STM32F407IGHx", ...). Device "STM32F407IG" selected.  returns 0x00 (0017ms, 0216ms total)
T40AC 000:319 JLINK_ExecCommand("DisableConnectionTimeout", ...).   returns 0x01 (0000ms, 0216ms total)
T40AC 000:319 JLINK_GetHardwareVersion()  returns 0x11170 (0000ms, 0216ms total)
T40AC 000:319 JLINK_GetDLLVersion()  returns 61402 (0000ms, 0216ms total)
T40AC 000:319 JLINK_GetFirmwareString(...) (0000ms, 0216ms total)
T40AC 000:349 JLINK_GetDLLVersion()  returns 61402 (0000ms, 0216ms total)
T40AC 000:349 JLINK_GetCompileDateTime() (0000ms, 0216ms total)
T40AC 000:362 JLINK_GetFirmwareString(...) (0000ms, 0216ms total)
T40AC 000:368 JLINK_GetHardwareVersion()  returns 0x11170 (0000ms, 0216ms total)
T40AC 000:400 JLINK_TIF_Select(JLINKARM_TIF_SWD)  returns 0x00 (0001ms, 0218ms total)
T40AC 000:401 JLINK_SetSpeed(2000) (0000ms, 0218ms total)
T40AC 000:401 JLINK_GetId() >0x108 TIF>Found SWD-DP with ID 0x2BA01477 >0x0D TIF> >0x28 TIF> >0x0D TIF> >0x28 TIF> >0x0D TIF> >0x28 TIF> >0x0D TIF> >0x28 TIF> >0x0D TIF> >0x21 TIF> >0x0D TIF> >0x28 TIF> >0x0D TIF> >0x28 TIF> >0x0D TIF> >0x28 TIF> >0x0D TIF> >0x21 TIF> >0x0D TIF> >0x21 TIF> >0x0D TIF> >0x28 TIF> >0x0D TIF> >0x21 TIF> >0x0D TIF> >0x21 TIF> >0x0D TIF> >0x28 TIF> >0x0D TIF> >0x28 TIF> >0x0D TIF> >0x28 TIF> >0x0D TIF> >0x21 TIF> >0x0D TIF> >0x21 TIF> >0x0D TIF> >0x28 TIF> >0x0D TIF>
 >0x28 TIF> >0x0D TIF> >0x28 TIF> >0x0D TIF> >0x21 TIF> >0x0D TIF> >0x21 TIF> >0x0D TIF> >0x28 TIF> >0x0D TIF> >0x21 TIF> >0x0D TIF> >0x21 TIF> >0x0D TIF> >0x28 TIF> >0x0D TIF> >0x21 TIF> >0x0D TIF> >0x21 TIF> >0x108 TIF>Found SWD-DP with ID 0x2BA01477 >0x0D TIF> >0x28 TIF> >0x0D TIF> >0x28 TIF> >0x0D TIF> >0x28 TIF> >0x0D TIF> >0x28 TIF> >0x0D TIF> >0x21 TIF> >0x0D TIF> >0x28 TIF> >0x0D TIF> >0x28 TIF> >0x0D TIF> >0x21 TIF> >0x0D TIF> >0x21 TIF> >0x0D TIF> >0x21 TIF>AP-IDR: 0x24770011, Type: AHB-AP
AHB-AP ROM: 0xE00FF000 (Base addr. of first ROM table) >0x0D TIF> >0x28 TIF> >0x0D TIF> >0x28 TIF> >0x0D TIF> >0x28 TIF> >0x0D TIF> >0x21 TIF> >0x0D TIF> >0x21 TIF> >0x0D TIF> >0x28 TIF> >0x0D TIF> >0x21 TIF> >0x0D TIF> >0x21 TIF>Found Cortex-M4 r0p1, Little endian. -- CPU_ReadMem(4 bytes @ 0xE000EDF0) -- CPU_WriteMem(4 bytes @ 0xE000EDF0) -- CPU_ReadMem(4 bytes @ 0xE0002000)FPUnit: 6 code (BP) slots and 2 literal slots -- CPU_ReadMem(4 bytes @ 0xE000EDFC) -- CPU_WriteMem(4 bytes @ 0xE000EDFC)
 -- CPU_ReadMem(4 bytes @ 0xE0001000) -- CPU_WriteMem(4 bytes @ 0xE0001000) -- CPU_ReadMem(4 bytes @ 0xE000ED88) -- CPU_WriteMem(4 bytes @ 0xE000ED88) -- CPU_ReadMem(4 bytes @ 0xE000ED88) -- CPU_WriteMem(4 bytes @ 0xE000ED88)CoreSight components:ROMTbl 0 @ E00FF000 -- CPU_ReadMem(16 bytes @ 0xE00FF000) -- CPU_ReadMem(16 bytes @ 0xE000EFF0) -- CPU_ReadMem(16 bytes @ 0xE000EFE0)ROMTbl 0 [0]: FFF0F000, CID: B105E00D, PID: 000BB00C SCS -- CPU_ReadMem(16 bytes @ 0xE0001FF0)
 -- CPU_ReadMem(16 bytes @ 0xE0001FE0)ROMTbl 0 [1]: FFF02000, CID: B105E00D, PID: 003BB002 DWT -- CPU_ReadMem(16 bytes @ 0xE0002FF0) -- CPU_ReadMem(16 bytes @ 0xE0002FE0)ROMTbl 0 [2]: FFF03000, CID: B105E00D, PID: 002BB003 FPB -- CPU_ReadMem(16 bytes @ 0xE0000FF0) -- CPU_ReadMem(16 bytes @ 0xE0000FE0)ROMTbl 0 [3]: FFF01000, CID: B105E00D, PID: 003BB001 ITM -- CPU_ReadMem(16 bytes @ 0xE00FF010) -- CPU_ReadMem(16 bytes @ 0xE0040FF0) -- CPU_ReadMem(16 bytes @ 0xE0040FE0)
ROMTbl 0 [4]: FFF41000, CID: B105900D, PID: 000BB9A1 TPIU -- CPU_ReadMem(16 bytes @ 0xE0041FF0) -- CPU_ReadMem(16 bytes @ 0xE0041FE0)ROMTbl 0 [5]: FFF42000, CID: B105900D, PID: 000BB925 ETM >0x0D TIF> >0x21 TIF>  returns 0x2BA01477 (0151ms, 0369ms total)
T40AC 000:552 JLINK_GetDLLVersion()  returns 61402 (0000ms, 0369ms total)
T40AC 000:552 JLINK_CORE_GetFound()  returns 0xE0000FF (0000ms, 0369ms total)
T40AC 000:552 JLINK_GetDebugInfo(0x100 = JLINKARM_ROM_TABLE_ADDR_INDEX) -- Value=0xE00FF000  returns 0x00 (0000ms, 0369ms total)
T40AC 000:562 JLINK_GetDebugInfo(0x100 = JLINKARM_ROM_TABLE_ADDR_INDEX) -- Value=0xE00FF000  returns 0x00 (0000ms, 0369ms total)
T40AC 000:563 JLINK_GetDebugInfo(0x101 = JLINKARM_DEBUG_INFO_ETM_ADDR_INDEX) -- Value=0xE0041000  returns 0x00 (0000ms, 0369ms total)
T40AC 000:563 JLINK_GetDebugInfo(0x102 = JLINKARM_DEBUG_INFO_MTB_ADDR_INDEX) -- Value=0x00000000  returns 0x00 (0000ms, 0369ms total)
T40AC 000:563 JLINK_GetDebugInfo(0x103 = JLINKARM_DEBUG_INFO_TPIU_ADDR_INDEX) -- Value=0xE0040000  returns 0x00 (0000ms, 0369ms total)
T40AC 000:563 JLINK_GetDebugInfo(0x104 = JLINKARM_DEBUG_INFO_ITM_ADDR_INDEX) -- Value=0xE0000000  returns 0x00 (0000ms, 0369ms total)
T40AC 000:563 JLINK_GetDebugInfo(0x105 = JLINKARM_DEBUG_INFO_DWT_ADDR_INDEX) -- Value=0xE0001000  returns 0x00 (0000ms, 0369ms total)
T40AC 000:563 JLINK_GetDebugInfo(0x106 = JLINKARM_DEBUG_INFO_FPB_ADDR_INDEX) -- Value=0xE0002000  returns 0x00 (0000ms, 0369ms total)
T40AC 000:563 JLINK_GetDebugInfo(0x107 = JLINKARM_DEBUG_INFO_NVIC_ADDR_INDEX) -- Value=0xE000E000  returns 0x00 (0000ms, 0369ms total)
T40AC 000:564 JLINK_GetDebugInfo(0x10C = JLINKARM_DEBUG_INFO_DBG_ADDR_INDEX) -- Value=0xE000EDF0  returns 0x00 (0000ms, 0369ms total)
T40AC 000:564 JLINK_ReadMemU32(0xE000EF40, 0x0001 Items, ...) -- CPU is running -- CPU_ReadMem(4 bytes @ 0xE000EF40) - Data: 21 00 11 10  returns 0x01 (0000ms, 0369ms total)
T40AC 000:564 JLINK_ReadMemU32(0xE000EF44, 0x0001 Items, ...) -- CPU is running -- CPU_ReadMem(4 bytes @ 0xE000EF44) - Data: 11 00 00 11  returns 0x01 (0001ms, 0370ms total)
T40AC 000:565 JLINK_ReadMemU32(0xE000ED00, 0x0001 Items, ...) -- CPU is running -- CPU_ReadMem(4 bytes @ 0xE000ED00) - Data: 41 C2 0F 41  returns 0x01 (0001ms, 0371ms total)
T40AC 000:566 JLINK_SetResetType(JLINKARM_CM3_RESET_TYPE_NORMAL)  returns JLINKARM_CM3_RESET_TYPE_NORMAL (0000ms, 0371ms total)
T40AC 000:566 JLINK_Reset() -- CPU is running -- CPU_WriteMem(4 bytes @ 0xE000EDF0) -- CPU is running -- CPU_WriteMem(4 bytes @ 0xE000EDFC) >0x35 TIF> -- CPU is running -- CPU_WriteMem(4 bytes @ 0xE000ED0C) >0x0D TIF> >0x28 TIF> -- CPU is running -- CPU_ReadMem(4 bytes @ 0xE000EDF0) -- CPU is running -- CPU_ReadMem(4 bytes @ 0xE000EDF0) -- CPU is running -- CPU_WriteMem(4 bytes @ 0xE000EDF0) -- CPU is running -- CPU_WriteMem(4 bytes @ 0xE000EDFC) -- CPU is running -- CPU_ReadMem(4 bytes @ 0xE000EDF0)
 -- CPU_WriteMem(4 bytes @ 0xE0002000) -- CPU_ReadMem(4 bytes @ 0xE000EDFC) -- CPU_ReadMem(4 bytes @ 0xE0001000) (0067ms, 0438ms total)
T40AC 000:633 JLINK_Halt()  returns 0x00 (0000ms, 0438ms total)
T40AC 000:633 JLINK_IsHalted()  returns TRUE (0000ms, 0438ms total)
T40AC 000:633 JLINK_ReadMemU32(0xE000EDF0, 0x0001 Items, ...) -- CPU_ReadMem(4 bytes @ 0xE000EDF0) - Data: 03 00 03 00  returns 0x01 (0001ms, 0439ms total)
T40AC 000:634 JLINK_WriteU32(0xE000EDF0, 0xA05F0003) -- CPU_WriteMem(4 bytes @ 0xE000EDF0)  returns 0x00 (0001ms, 0440ms total)
T40AC 000:635 JLINK_WriteU32(0xE000EDFC, 0x01000000) -- CPU_WriteMem(4 bytes @ 0xE000EDFC)  returns 0x00 (0000ms, 0440ms total)
T40AC 000:686 JLINK_GetHWStatus(...)  returns 0x00 (0000ms, 0440ms total)
T40AC 000:719 JLINK_GetNumBPUnits(Type = 0xFFFFFF00)  returns 0x06 (0000ms, 0440ms total)
T40AC 000:719 JLINK_GetNumBPUnits(Type = 0xF0)  returns 0x2000 (0000ms, 0440ms total)
T40AC 000:719 JLINK_GetNumWPUnits()  returns 0x04 (0000ms, 0440ms total)
T40AC 000:749 JLINK_GetSpeed()  returns 0x7D0 (0000ms, 0440ms total)
T40AC 000:766 JLINK_ReadMemU32(0xE000E004, 0x0001 Items, ...) -- CPU_ReadMem(4 bytes @ 0xE000E004) - Data: 02 00 00 00  returns 0x01 (0001ms, 0441ms total)
T40AC 000:767 JLINK_ReadMemU32(0xE000E004, 0x0001 Items, ...) -- CPU_ReadMem(4 bytes @ 0xE000E004) - Data: 02 00 00 00  returns 0x01 (0001ms, 0442ms total)
T40AC 000:768 JLINK_WriteMem(0xE0001000, 0x001C Bytes, ...) - Data: 01 00 00 00 00 00 00 00 00 00 00 00 00 00 00 00 ... -- CPU_WriteMem(28 bytes @ 0xE0001000)  returns 0x1C (0001ms, 0443ms total)
T40AC 000:769 JLINK_ReadMem (0xE0001000, 0x001C Bytes, ...) -- CPU_ReadMem(28 bytes @ 0xE0001000) - Data: 01 00 00 40 00 00 00 00 00 00 00 00 00 00 00 00 ...  returns 0x00 (0001ms, 0444ms total)
T40AC 000:770 JLINK_Halt()  returns 0x00 (0000ms, 0444ms total)
T40AC 000:770 JLINK_IsHalted()  returns TRUE (0000ms, 0444ms total)
T40AC 000:775 JLINK_WriteMem(0x20000000, 0x0180 Bytes, ...) - Data: 00 BE 0A E0 0D 78 2D 06 68 40 08 24 40 00 00 D3 ... -- CPU_WriteMem(384 bytes @ 0x20000000)  returns 0x180 (0005ms, 0449ms total)
T40AC 000:780 JLINK_WriteReg(R0, 0x08000000)  returns 0x00 (0000ms, 0449ms total)
T40AC 000:781 JLINK_WriteReg(R1, 0x00B71B00)  returns 0x00 (0000ms, 0450ms total)
T40AC 000:781 JLINK_WriteReg(R2, 0x00000001)  returns 0x00 (0000ms, 0450ms total)
T40AC 000:781 JLINK_WriteReg(R3, 0x00000000)  returns 0x00 (0000ms, 0450ms total)
T40AC 000:781 JLINK_WriteReg(R4, 0x00000000)  returns 0x00 (0000ms, 0450ms total)
T40AC 000:781 JLINK_WriteReg(R5, 0x00000000)  returns 0x00 (0000ms, 0450ms total)
T40AC 000:781 JLINK_WriteReg(R6, 0x00000000)  returns 0x00 (0000ms, 0450ms total)
T40AC 000:781 JLINK_WriteReg(R7, 0x00000000)  returns 0x00 (0001ms, 0451ms total)
T40AC 000:782 JLINK_WriteReg(R8, 0x00000000)  returns 0x00 (0000ms, 0451ms total)
T40AC 000:782 JLINK_WriteReg(R9, 0x2000017C)  returns 0x00 (0000ms, 0451ms total)
T40AC 000:782 JLINK_WriteReg(R10, 0x00000000)  returns 0x00 (0000ms, 0451ms total)
T40AC 000:782 JLINK_WriteReg(R11, 0x00000000)  returns 0x00 (0000ms, 0451ms total)
T40AC 000:782 JLINK_WriteReg(R12, 0x00000000)  returns 0x00 (0000ms, 0451ms total)
T40AC 000:782 JLINK_WriteReg(R13 (SP), 0x20001000)  returns 0x00 (0000ms, 0451ms total)
T40AC 000:782 JLINK_WriteReg(R14, 0x20000001)  returns 0x00 (0000ms, 0451ms total)
T40AC 000:782 JLINK_WriteReg(R15 (PC), 0x20000054)  returns 0x00 (0001ms, 0452ms total)
T40AC 000:783 JLINK_WriteReg(XPSR, 0x01000000)  returns 0x00 (0000ms, 0452ms total)
T40AC 000:783 JLINK_WriteReg(MSP, 0x20001000)  returns 0x00 (0000ms, 0452ms total)
T40AC 000:783 JLINK_WriteReg(PSP, 0x20001000)  returns 0x00 (0000ms, 0452ms total)
T40AC 000:783 JLINK_WriteReg(CFBP, 0x00000000)  returns 0x00 (0000ms, 0452ms total)
T40AC 000:783 JLINK_SetBPEx(Addr = 0x20000000, Type = 0xFFFFFFF2) -- CPU_ReadMem(2 bytes @ 0x20000000)  returns 0x00000001 (0001ms, 0453ms total)
T40AC 000:784 JLINK_Go() -- CPU_WriteMem(2 bytes @ 0x20000000) -- CPU_ReadMem(4 bytes @ 0xE0001000) -- CPU_WriteMem(4 bytes @ 0xE0002008) -- CPU_WriteMem(4 bytes @ 0xE000200C) -- CPU_WriteMem(4 bytes @ 0xE0002010) -- CPU_WriteMem(4 bytes @ 0xE0002014) -- CPU_WriteMem(4 bytes @ 0xE0002018) -- CPU_WriteMem(4 bytes @ 0xE000201C) -- CPU_WriteMem(4 bytes @ 0xE0001004) (0006ms, 0459ms total)
T40AC 000:790 JLINK_IsHalted() -- CPU_ReadMem(2 bytes @ 0x20000000)  returns TRUE (0004ms, 0463ms total)
T40AC 000:794 JLINK_ReadReg(R15 (PC))  returns 0x20000000 (0000ms, 0459ms total)
T40AC 000:794 JLINK_ClrBPEx(BPHandle = 0x00000001)  returns 0x00 (0000ms, 0459ms total)
T40AC 000:794 JLINK_ReadReg(R0)  returns 0x00000000 (0000ms, 0459ms total)
T40AC 000:796 JLINK_WriteReg(R0, 0x08000000)  returns 0x00 (0000ms, 0459ms total)
T40AC 000:796 JLINK_WriteReg(R1, 0x00004000)  returns 0x00 (0000ms, 0459ms total)
T40AC 000:796 JLINK_WriteReg(R2, 0x000000FF)  returns 0x00 (0000ms, 0459ms total)
T40AC 000:796 JLINK_WriteReg(R3, 0x00000000)  returns 0x00 (0000ms, 0459ms total)
T40AC 000:797 JLINK_WriteReg(R4, 0x00000000)  returns 0x00 (0000ms, 0460ms total)
T40AC 000:797 JLINK_WriteReg(R5, 0x00000000)  returns 0x00 (0000ms, 0460ms total)
T40AC 000:797 JLINK_WriteReg(R6, 0x00000000)  returns 0x00 (0000ms, 0460ms total)
T40AC 000:797 JLINK_WriteReg(R7, 0x00000000)  returns 0x00 (0000ms, 0460ms total)
T40AC 000:797 JLINK_WriteReg(R8, 0x00000000)  returns 0x00 (0000ms, 0460ms total)
T40AC 000:797 JLINK_WriteReg(R9, 0x2000017C)  returns 0x00 (0000ms, 0460ms total)
T40AC 000:797 JLINK_WriteReg(R10, 0x00000000)  returns 0x00 (0000ms, 0460ms total)
T40AC 000:797 JLINK_WriteReg(R11, 0x00000000)  returns 0x00 (0001ms, 0461ms total)
T40AC 000:798 JLINK_WriteReg(R12, 0x00000000)  returns 0x00 (0000ms, 0461ms total)
T40AC 000:798 JLINK_WriteReg(R13 (SP), 0x20001000)  returns 0x00 (0000ms, 0461ms total)
T40AC 000:798 JLINK_WriteReg(R14, 0x20000001)  returns 0x00 (0000ms, 0461ms total)
T40AC 000:798 JLINK_WriteReg(R15 (PC), 0x20000020)  returns 0x00 (0000ms, 0461ms total)
T40AC 000:798 JLINK_WriteReg(XPSR, 0x01000000)  returns 0x00 (0000ms, 0461ms total)
T40AC 000:798 JLINK_WriteReg(MSP, 0x20001000)  returns 0x00 (0000ms, 0461ms total)
T40AC 000:798 JLINK_WriteReg(PSP, 0x20001000)  returns 0x00 (0001ms, 0462ms total)
T40AC 000:799 JLINK_WriteReg(CFBP, 0x00000000)  returns 0x00 (0000ms, 0462ms total)
T40AC 000:799 JLINK_SetBPEx(Addr = 0x20000000, Type = 0xFFFFFFF2)  returns 0x00000002 (0000ms, 0462ms total)
T40AC 000:799 JLINK_Go() -- CPU_ReadMem(4 bytes @ 0xE0001000) (0002ms, 0464ms total)
T40AC 000:801 JLINK_IsHalted() -- CPU_ReadMem(2 bytes @ 0x20000000)  returns TRUE (0004ms, 0468ms total)
T40AC 000:805 JLINK_ReadReg(R15 (PC))  returns 0x20000000 (0000ms, 0464ms total)
T40AC 000:805 JLINK_ClrBPEx(BPHandle = 0x00000002)  returns 0x00 (0000ms, 0464ms total)
T40AC 000:805 JLINK_ReadReg(R0)  returns 0x00000001 (0000ms, 0464ms total)
T40AC 000:805 JLINK_WriteReg(R0, 0x08000000)  returns 0x00 (0000ms, 0464ms total)
T40AC 000:806 JLINK_WriteReg(R1, 0x00004000)  returns 0x00 (0000ms, 0464ms total)
T40AC 000:806 JLINK_WriteReg(R2, 0x000000FF)  returns 0x00 (0000ms, 0464ms total)
T40AC 000:806 JLINK_WriteReg(R3, 0x00000000)  returns 0x00 (0000ms, 0464ms total)
T40AC 000:806 JLINK_WriteReg(R4, 0x00000000)  returns 0x00 (0000ms, 0464ms total)
T40AC 000:806 JLINK_WriteReg(R5, 0x00000000)  returns 0x00 (0000ms, 0464ms total)
T40AC 000:806 JLINK_WriteReg(R6, 0x00000000)  returns 0x00 (0000ms, 0464ms total)
T40AC 000:806 JLINK_WriteReg(R7, 0x00000000)  returns 0x00 (0000ms, 0464ms total)
T40AC 000:806 JLINK_WriteReg(R8, 0x00000000)  returns 0x00 (0001ms, 0465ms total)
T40AC 000:807 JLINK_WriteReg(R9, 0x2000017C)  returns 0x00 (0000ms, 0465ms total)
T40AC 000:807 JLINK_WriteReg(R10, 0x00000000)  returns 0x00 (0000ms, 0465ms total)
T40AC 000:807 JLINK_WriteReg(R11, 0x00000000)  returns 0x00 (0000ms, 0465ms total)
T40AC 000:807 JLINK_WriteReg(R12, 0x00000000)  returns 0x00 (0000ms, 0465ms total)
T40AC 000:807 JLINK_WriteReg(R13 (SP), 0x20001000)  returns 0x00 (0001ms, 0466ms total)
T40AC 000:808 JLINK_WriteReg(R14, 0x20000001)  returns 0x00 (0000ms, 0466ms total)
T40AC 000:808 JLINK_WriteReg(R15 (PC), 0x200000BC)  returns 0x00 (0000ms, 0466ms total)
T40AC 000:808 JLINK_WriteReg(XPSR, 0x01000000)  returns 0x00 (0000ms, 0466ms total)
T40AC 000:808 JLINK_WriteReg(MSP, 0x20001000)  returns 0x00 (0000ms, 0466ms total)
T40AC 000:808 JLINK_WriteReg(PSP, 0x20001000)  returns 0x00 (0000ms, 0466ms total)
T40AC 000:808 JLINK_WriteReg(CFBP, 0x00000000)  returns 0x00 (0000ms, 0466ms total)
T40AC 000:808 JLINK_SetBPEx(Addr = 0x20000000, Type = 0xFFFFFFF2)  returns 0x00000003 (0000ms, 0466ms total)
T40AC 000:808 JLINK_Go() -- CPU_ReadMem(4 bytes @ 0xE0001000) (0002ms, 0468ms total)
T40AC 000:810 JLINK_IsHalted()  returns FALSE (0001ms, 0469ms total)
T40AC 001:007 JLINK_IsHalted()  returns FALSE (0000ms, 0468ms total)
T40AC 001:009 JLINK_IsHalted()  returns FALSE (0000ms, 0468ms total)
T40AC 001:011 JLINK_IsHalted()  returns FALSE (0000ms, 0468ms total)
T40AC 001:081 JLINK_IsHalted()  returns FALSE (0000ms, 0468ms total)
T40AC 001:083 JLINK_IsHalted()  returns FALSE (0000ms, 0468ms total)
T40AC 001:085 JLINK_IsHalted()  returns FALSE (0000ms, 0468ms total)
T40AC 001:087 JLINK_IsHalted()  returns FALSE (0000ms, 0468ms total)
T40AC 001:093 JLINK_IsHalted()  returns FALSE (0000ms, 0468ms total)
T40AC 001:095 JLINK_IsHalted()  returns FALSE (0000ms, 0468ms total)
T40AC 001:111 JLINK_IsHalted()  returns FALSE (0000ms, 0468ms total)
T40AC 001:113 JLINK_IsHalted()  returns FALSE (0001ms, 0469ms total)
T40AC 001:121 JLINK_IsHalted()  returns FALSE (0000ms, 0468ms total)
T40AC 001:123 JLINK_IsHalted()  returns FALSE (0000ms, 0468ms total)
T40AC 001:212 JLINK_IsHalted() -- CPU_ReadMem(2 bytes @ 0x20000000)  returns TRUE (0003ms, 0471ms total)
T40AC 001:215 JLINK_ReadReg(R15 (PC))  returns 0x20000000 (0000ms, 0468ms total)
T40AC 001:215 JLINK_ClrBPEx(BPHandle = 0x00000003)  returns 0x00 (0001ms, 0469ms total)
T40AC 001:216 JLINK_ReadReg(R0)  returns 0x00000000 (0000ms, 0469ms total)
T40AC 001:217 JLINK_WriteReg(R0, 0x08004000)  returns 0x00 (0000ms, 0469ms total)
T40AC 001:217 JLINK_WriteReg(R1, 0x00004000)  returns 0x00 (0000ms, 0469ms total)
T40AC 001:217 JLINK_WriteReg(R2, 0x000000FF)  returns 0x00 (0000ms, 0469ms total)
T40AC 001:217 JLINK_WriteReg(R3, 0x00000000)  returns 0x00 (0000ms, 0469ms total)
T40AC 001:218 JLINK_WriteReg(R4, 0x00000000)  returns 0x00 (0000ms, 0469ms total)
T40AC 001:218 JLINK_WriteReg(R5, 0x00000000)  returns 0x00 (0000ms, 0469ms total)
T40AC 001:218 JLINK_WriteReg(R6, 0x00000000)  returns 0x00 (0000ms, 0469ms total)
T40AC 001:218 JLINK_WriteReg(R7, 0x00000000)  returns 0x00 (0000ms, 0469ms total)
T40AC 001:218 JLINK_WriteReg(R8, 0x00000000)  returns 0x00 (0000ms, 0469ms total)
T40AC 001:218 JLINK_WriteReg(R9, 0x2000017C)  returns 0x00 (0000ms, 0469ms total)
T40AC 001:218 JLINK_WriteReg(R10, 0x00000000)  returns 0x00 (0001ms, 0470ms total)
T40AC 001:219 JLINK_WriteReg(R11, 0x00000000)  returns 0x00 (0000ms, 0470ms total)
T40AC 001:219 JLINK_WriteReg(R12, 0x00000000)  returns 0x00 (0000ms, 0470ms total)
T40AC 001:219 JLINK_WriteReg(R13 (SP), 0x20001000)  returns 0x00 (0000ms, 0470ms total)
T40AC 001:219 JLINK_WriteReg(R14, 0x20000001)  returns 0x00 (0000ms, 0470ms total)
T40AC 001:219 JLINK_WriteReg(R15 (PC), 0x20000020)  returns 0x00 (0000ms, 0470ms total)
T40AC 001:219 JLINK_WriteReg(XPSR, 0x01000000)  returns 0x00 (0000ms, 0470ms total)
T40AC 001:220 JLINK_WriteReg(MSP, 0x20001000)  returns 0x00 (0000ms, 0471ms total)
T40AC 001:220 JLINK_WriteReg(PSP, 0x20001000)  returns 0x00 (0000ms, 0471ms total)
T40AC 001:220 JLINK_WriteReg(CFBP, 0x00000000)  returns 0x00 (0000ms, 0471ms total)
T40AC 001:220 JLINK_SetBPEx(Addr = 0x20000000, Type = 0xFFFFFFF2)  returns 0x00000004 (0000ms, 0471ms total)
T40AC 001:220 JLINK_Go() -- CPU_ReadMem(4 bytes @ 0xE0001000) (0002ms, 0473ms total)
T40AC 001:223 JLINK_IsHalted() -- CPU_ReadMem(2 bytes @ 0x20000000)  returns TRUE (0003ms, 0477ms total)
T40AC 001:227 JLINK_ReadReg(R15 (PC))  returns 0x20000000 (0000ms, 0474ms total)
T40AC 001:227 JLINK_ClrBPEx(BPHandle = 0x00000004)  returns 0x00 (0000ms, 0474ms total)
T40AC 001:227 JLINK_ReadReg(R0)  returns 0x00000001 (0000ms, 0474ms total)
T40AC 001:227 JLINK_WriteReg(R0, 0x08004000)  returns 0x00 (0000ms, 0474ms total)
T40AC 001:227 JLINK_WriteReg(R1, 0x00004000)  returns 0x00 (0000ms, 0474ms total)
T40AC 001:227 JLINK_WriteReg(R2, 0x000000FF)  returns 0x00 (0000ms, 0474ms total)
T40AC 001:227 JLINK_WriteReg(R3, 0x00000000)  returns 0x00 (0001ms, 0475ms total)
T40AC 001:228 JLINK_WriteReg(R4, 0x00000000)  returns 0x00 (0000ms, 0475ms total)
T40AC 001:228 JLINK_WriteReg(R5, 0x00000000)  returns 0x00 (0000ms, 0475ms total)
T40AC 001:228 JLINK_WriteReg(R6, 0x00000000)  returns 0x00 (0000ms, 0475ms total)
T40AC 001:228 JLINK_WriteReg(R7, 0x00000000)  returns 0x00 (0000ms, 0475ms total)
T40AC 001:228 JLINK_WriteReg(R8, 0x00000000)  returns 0x00 (0000ms, 0475ms total)
T40AC 001:228 JLINK_WriteReg(R9, 0x2000017C)  returns 0x00 (0001ms, 0476ms total)
T40AC 001:229 JLINK_WriteReg(R10, 0x00000000)  returns 0x00 (0000ms, 0476ms total)
T40AC 001:229 JLINK_WriteReg(R11, 0x00000000)  returns 0x00 (0000ms, 0476ms total)
T40AC 001:229 JLINK_WriteReg(R12, 0x00000000)  returns 0x00 (0000ms, 0476ms total)
T40AC 001:229 JLINK_WriteReg(R13 (SP), 0x20001000)  returns 0x00 (0000ms, 0476ms total)
T40AC 001:229 JLINK_WriteReg(R14, 0x20000001)  returns 0x00 (0000ms, 0476ms total)
T40AC 001:229 JLINK_WriteReg(R15 (PC), 0x200000BC)  returns 0x00 (0000ms, 0476ms total)
T40AC 001:230 JLINK_WriteReg(XPSR, 0x01000000)  returns 0x00 (0000ms, 0477ms total)
T40AC 001:230 JLINK_WriteReg(MSP, 0x20001000)  returns 0x00 (0000ms, 0477ms total)
T40AC 001:230 JLINK_WriteReg(PSP, 0x20001000)  returns 0x00 (0000ms, 0477ms total)
T40AC 001:230 JLINK_WriteReg(CFBP, 0x00000000)  returns 0x00 (0000ms, 0477ms total)
T40AC 001:230 JLINK_SetBPEx(Addr = 0x20000000, Type = 0xFFFFFFF2)  returns 0x00000005 (0000ms, 0477ms total)
T40AC 001:230 JLINK_Go() -- CPU_ReadMem(4 bytes @ 0xE0001000) (0002ms, 0479ms total)
T40AC 001:232 JLINK_IsHalted()  returns FALSE (0001ms, 0480ms total)
T40AC 001:326 JLINK_IsHalted()  returns FALSE (0000ms, 0479ms total)
T40AC 001:328 JLINK_IsHalted()  returns FALSE (0000ms, 0479ms total)
T40AC 001:330 JLINK_IsHalted()  returns FALSE (0000ms, 0479ms total)
T40AC 001:332 JLINK_IsHalted()  returns FALSE (0000ms, 0479ms total)
T40AC 001:334 JLINK_IsHalted()  returns FALSE (0000ms, 0479ms total)
T40AC 001:336 JLINK_IsHalted()  returns FALSE (0000ms, 0479ms total)
T40AC 001:338 JLINK_IsHalted()  returns FALSE (0000ms, 0479ms total)
T40AC 001:419 JLINK_IsHalted()  returns FALSE (0001ms, 0480ms total)
T40AC 001:421 JLINK_IsHalted()  returns FALSE (0001ms, 0480ms total)
T40AC 001:423 JLINK_IsHalted()  returns FALSE (0000ms, 0479ms total)
T40AC 001:425 JLINK_IsHalted()  returns FALSE (0000ms, 0479ms total)
T40AC 001:427 JLINK_IsHalted()  returns FALSE (0001ms, 0480ms total)
T40AC 001:429 JLINK_IsHalted()  returns FALSE (0000ms, 0479ms total)
T40AC 001:431 JLINK_IsHalted()  returns FALSE (0001ms, 0480ms total)
T40AC 001:433 JLINK_IsHalted()  returns FALSE (0001ms, 0480ms total)
T40AC 001:435 JLINK_IsHalted()  returns FALSE (0000ms, 0479ms total)
T40AC 001:437 JLINK_IsHalted()  returns FALSE (0000ms, 0479ms total)
T40AC 001:439 JLINK_IsHalted()  returns FALSE (0000ms, 0479ms total)
T40AC 001:441 JLINK_IsHalted()  returns FALSE (0001ms, 0480ms total)
T40AC 001:443 JLINK_IsHalted()  returns FALSE (0001ms, 0480ms total)
T40AC 001:445 JLINK_IsHalted()  returns FALSE (0001ms, 0480ms total)
T40AC 001:447 JLINK_IsHalted()  returns FALSE (0001ms, 0480ms total)
T40AC 001:449 JLINK_IsHalted()  returns FALSE (0000ms, 0479ms total)
T40AC 001:451 JLINK_IsHalted()  returns FALSE (0000ms, 0479ms total)
T40AC 001:491 JLINK_IsHalted()  returns FALSE (0000ms, 0479ms total)
T40AC 001:493 JLINK_IsHalted()  returns FALSE (0000ms, 0479ms total)
T40AC 001:495 JLINK_IsHalted()  returns FALSE (0000ms, 0479ms total)
T40AC 001:497 JLINK_IsHalted()  returns FALSE (0000ms, 0479ms total)
T40AC 001:499 JLINK_IsHalted()  returns FALSE (0000ms, 0479ms total)
T40AC 001:501 JLINK_IsHalted()  returns FALSE (0000ms, 0479ms total)
T40AC 001:503 JLINK_IsHalted()  returns FALSE (0000ms, 0479ms total)
T40AC 001:505 JLINK_IsHalted()  returns FALSE (0000ms, 0479ms total)
T40AC 001:507 JLINK_IsHalted()  returns FALSE (0000ms, 0479ms total)
T40AC 001:509 JLINK_IsHalted()  returns FALSE (0000ms, 0479ms total)
T40AC 001:511 JLINK_IsHalted()  returns FALSE (0000ms, 0479ms total)
T40AC 001:513 JLINK_IsHalted()  returns FALSE (0000ms, 0479ms total)
T40AC 001:515 JLINK_IsHalted()  returns FALSE (0000ms, 0479ms total)
T40AC 001:517 JLINK_IsHalted()  returns FALSE (0000ms, 0479ms total)
T40AC 001:519 JLINK_IsHalted()  returns FALSE (0000ms, 0479ms total)
T40AC 001:521 JLINK_IsHalted()  returns FALSE (0000ms, 0479ms total)
T40AC 001:523 JLINK_IsHalted()  returns FALSE (0000ms, 0479ms total)
T40AC 001:525 JLINK_IsHalted()  returns FALSE (0000ms, 0479ms total)
T40AC 001:527 JLINK_IsHalted()  returns FALSE (0000ms, 0479ms total)
T40AC 001:529 JLINK_IsHalted()  returns FALSE (0000ms, 0479ms total)
T40AC 001:531 JLINK_IsHalted()  returns FALSE (0000ms, 0479ms total)
T40AC 001:533 JLINK_IsHalted()  returns FALSE (0000ms, 0479ms total)
T40AC 001:535 JLINK_IsHalted()  returns FALSE (0000ms, 0479ms total)
T40AC 001:537 JLINK_IsHalted()  returns FALSE (0000ms, 0479ms total)
T40AC 001:539 JLINK_IsHalted()  returns FALSE (0000ms, 0479ms total)
T40AC 001:541 JLINK_IsHalted()  returns FALSE (0000ms, 0479ms total)
T40AC 001:543 JLINK_IsHalted()  returns FALSE (0000ms, 0479ms total)
T40AC 001:545 JLINK_IsHalted()  returns FALSE (0000ms, 0479ms total)
T40AC 001:558 JLINK_IsHalted()  returns FALSE (0000ms, 0479ms total)
T40AC 001:560 JLINK_IsHalted()  returns FALSE (0000ms, 0479ms total)
T40AC 001:640 JLINK_IsHalted() -- CPU_ReadMem(2 bytes @ 0x20000000)  returns TRUE (0004ms, 0483ms total)
T40AC 001:644 JLINK_ReadReg(R15 (PC))  returns 0x20000000 (0000ms, 0479ms total)
T40AC 001:644 JLINK_ClrBPEx(BPHandle = 0x00000005)  returns 0x00 (0000ms, 0479ms total)
T40AC 001:644 JLINK_ReadReg(R0)  returns 0x00000000 (0000ms, 0479ms total)
T40AC 001:645 JLINK_WriteReg(R0, 0x00000001)  returns 0x00 (0000ms, 0479ms total)
T40AC 001:645 JLINK_WriteReg(R1, 0x00004000)  returns 0x00 (0000ms, 0479ms total)
T40AC 001:645 JLINK_WriteReg(R2, 0x000000FF)  returns 0x00 (0000ms, 0479ms total)
T40AC 001:645 JLINK_WriteReg(R3, 0x00000000)  returns 0x00 (0000ms, 0479ms total)
T40AC 001:645 JLINK_WriteReg(R4, 0x00000000)  returns 0x00 (0001ms, 0480ms total)
T40AC 001:646 JLINK_WriteReg(R5, 0x00000000)  returns 0x00 (0000ms, 0480ms total)
T40AC 001:646 JLINK_WriteReg(R6, 0x00000000)  returns 0x00 (0000ms, 0480ms total)
T40AC 001:646 JLINK_WriteReg(R7, 0x00000000)  returns 0x00 (0000ms, 0480ms total)
T40AC 001:646 JLINK_WriteReg(R8, 0x00000000)  returns 0x00 (0000ms, 0480ms total)
T40AC 001:646 JLINK_WriteReg(R9, 0x2000017C)  returns 0x00 (0000ms, 0480ms total)
T40AC 001:646 JLINK_WriteReg(R10, 0x00000000)  returns 0x00 (0000ms, 0480ms total)
T40AC 001:646 JLINK_WriteReg(R11, 0x00000000)  returns 0x00 (0000ms, 0480ms total)
T40AC 001:647 JLINK_WriteReg(R12, 0x00000000)  returns 0x00 (0000ms, 0481ms total)
T40AC 001:647 JLINK_WriteReg(R13 (SP), 0x20001000)  returns 0x00 (0000ms, 0481ms total)
T40AC 001:647 JLINK_WriteReg(R14, 0x20000001)  returns 0x00 (0000ms, 0481ms total)
T40AC 001:647 JLINK_WriteReg(R15 (PC), 0x20000082)  returns 0x00 (0000ms, 0481ms total)
T40AC 001:647 JLINK_WriteReg(XPSR, 0x01000000)  returns 0x00 (0000ms, 0481ms total)
T40AC 001:647 JLINK_WriteReg(MSP, 0x20001000)  returns 0x00 (0000ms, 0481ms total)
T40AC 001:647 JLINK_WriteReg(PSP, 0x20001000)  returns 0x00 (0000ms, 0481ms total)
T40AC 001:648 JLINK_WriteReg(CFBP, 0x00000000)  returns 0x00 (0000ms, 0481ms total)
T40AC 001:648 JLINK_SetBPEx(Addr = 0x20000000, Type = 0xFFFFFFF2)  returns 0x00000006 (0000ms, 0481ms total)
T40AC 001:648 JLINK_Go() -- CPU_ReadMem(4 bytes @ 0xE0001000) (0002ms, 0483ms total)
T40AC 001:650 JLINK_IsHalted() -- CPU_ReadMem(2 bytes @ 0x20000000)  returns TRUE (0004ms, 0487ms total)
T40AC 001:654 JLINK_ReadReg(R15 (PC))  returns 0x20000000 (0000ms, 0483ms total)
T40AC 001:654 JLINK_ClrBPEx(BPHandle = 0x00000006)  returns 0x00 (0000ms, 0483ms total)
T40AC 001:654 JLINK_ReadReg(R0)  returns 0x00000000 (0000ms, 0483ms total)
T40AC 001:722 JLINK_WriteMem(0x20000000, 0x0180 Bytes, ...) - Data: 00 BE 0A E0 0D 78 2D 06 68 40 08 24 40 00 00 D3 ... -- CPU_WriteMem(384 bytes @ 0x20000000)  returns 0x180 (0005ms, 0488ms total)
T40AC 001:727 JLINK_WriteReg(R0, 0x08000000)  returns 0x00 (0000ms, 0488ms total)
T40AC 001:727 JLINK_WriteReg(R1, 0x00B71B00)  returns 0x00 (0000ms, 0488ms total)
T40AC 001:727 JLINK_WriteReg(R2, 0x00000002)  returns 0x00 (0000ms, 0488ms total)
T40AC 001:727 JLINK_WriteReg(R3, 0x00000000)  returns 0x00 (0001ms, 0489ms total)
T40AC 001:728 JLINK_WriteReg(R4, 0x00000000)  returns 0x00 (0000ms, 0489ms total)
T40AC 001:728 JLINK_WriteReg(R5, 0x00000000)  returns 0x00 (0000ms, 0489ms total)
T40AC 001:728 JLINK_WriteReg(R6, 0x00000000)  returns 0x00 (0000ms, 0489ms total)
T40AC 001:728 JLINK_WriteReg(R7, 0x00000000)  returns 0x00 (0000ms, 0489ms total)
T40AC 001:728 JLINK_WriteReg(R8, 0x00000000)  returns 0x00 (0000ms, 0489ms total)
T40AC 001:728 JLINK_WriteReg(R9, 0x2000017C)  returns 0x00 (0000ms, 0489ms total)
T40AC 001:728 JLINK_WriteReg(R10, 0x00000000)  returns 0x00 (0001ms, 0490ms total)
T40AC 001:729 JLINK_WriteReg(R11, 0x00000000)  returns 0x00 (0000ms, 0490ms total)
T40AC 001:729 JLINK_WriteReg(R12, 0x00000000)  returns 0x00 (0000ms, 0490ms total)
T40AC 001:729 JLINK_WriteReg(R13 (SP), 0x20001000)  returns 0x00 (0000ms, 0490ms total)
T40AC 001:729 JLINK_WriteReg(R14, 0x20000001)  returns 0x00 (0000ms, 0490ms total)
T40AC 001:729 JLINK_WriteReg(R15 (PC), 0x20000054)  returns 0x00 (0000ms, 0490ms total)
T40AC 001:729 JLINK_WriteReg(XPSR, 0x01000000)  returns 0x00 (0000ms, 0490ms total)
T40AC 001:729 JLINK_WriteReg(MSP, 0x20001000)  returns 0x00 (0001ms, 0491ms total)
T40AC 001:730 JLINK_WriteReg(PSP, 0x20001000)  returns 0x00 (0000ms, 0491ms total)
T40AC 001:730 JLINK_WriteReg(CFBP, 0x00000000)  returns 0x00 (0000ms, 0491ms total)
T40AC 001:730 JLINK_SetBPEx(Addr = 0x20000000, Type = 0xFFFFFFF2) -- CPU_ReadMem(2 bytes @ 0x20000000)  returns 0x00000007 (0001ms, 0492ms total)
T40AC 001:731 JLINK_Go() -- CPU_WriteMem(2 bytes @ 0x20000000) -- CPU_ReadMem(4 bytes @ 0xE0001000) (0002ms, 0494ms total)
T40AC 001:733 JLINK_IsHalted() -- CPU_ReadMem(2 bytes @ 0x20000000)  returns TRUE (0004ms, 0498ms total)
T40AC 001:737 JLINK_ReadReg(R15 (PC))  returns 0x20000000 (0000ms, 0494ms total)
T40AC 001:737 JLINK_ClrBPEx(BPHandle = 0x00000007)  returns 0x00 (0000ms, 0494ms total)
T40AC 001:737 JLINK_ReadReg(R0)  returns 0x00000000 (0000ms, 0494ms total)
T40AC 001:738 JLINK_WriteMem(0x20000180, 0x0400 Bytes, ...) - Data: 00 1B 00 20 29 02 00 08 0F 2B 00 08 7D 28 00 08 ... -- CPU_WriteMem(1024 bytes @ 0x20000180)  returns 0x400 (0012ms, 0506ms total)
T40AC 001:750 JLINK_WriteReg(R0, 0x08000000)  returns 0x00 (0000ms, 0506ms total)
T40AC 001:750 JLINK_WriteReg(R1, 0x00000400)  returns 0x00 (0001ms, 0507ms total)
T40AC 001:751 JLINK_WriteReg(R2, 0x20000180)  returns 0x00 (0000ms, 0507ms total)
T40AC 001:751 JLINK_WriteReg(R3, 0x00000000)  returns 0x00 (0000ms, 0507ms total)
T40AC 001:751 JLINK_WriteReg(R4, 0x00000000)  returns 0x00 (0000ms, 0507ms total)
T40AC 001:751 JLINK_WriteReg(R5, 0x00000000)  returns 0x00 (0000ms, 0507ms total)
T40AC 001:751 JLINK_WriteReg(R6, 0x00000000)  returns 0x00 (0000ms, 0507ms total)
T40AC 001:751 JLINK_WriteReg(R7, 0x00000000)  returns 0x00 (0000ms, 0507ms total)
T40AC 001:752 JLINK_WriteReg(R8, 0x00000000)  returns 0x00 (0000ms, 0507ms total)
T40AC 001:752 JLINK_WriteReg(R9, 0x2000017C)  returns 0x00 (0000ms, 0507ms total)
T40AC 001:752 JLINK_WriteReg(R10, 0x00000000)  returns 0x00 (0000ms, 0507ms total)
T40AC 001:752 JLINK_WriteReg(R11, 0x00000000)  returns 0x00 (0000ms, 0507ms total)
T40AC 001:752 JLINK_WriteReg(R12, 0x00000000)  returns 0x00 (0000ms, 0507ms total)
T40AC 001:752 JLINK_WriteReg(R13 (SP), 0x20001000)  returns 0x00 (0000ms, 0507ms total)
T40AC 001:752 JLINK_WriteReg(R14, 0x20000001)  returns 0x00 (0000ms, 0507ms total)
T40AC 001:752 JLINK_WriteReg(R15 (PC), 0x20000108)  returns 0x00 (0001ms, 0508ms total)
T40AC 001:753 JLINK_WriteReg(XPSR, 0x01000000)  returns 0x00 (0000ms, 0508ms total)
T40AC 001:753 JLINK_WriteReg(MSP, 0x20001000)  returns 0x00 (0000ms, 0508ms total)
T40AC 001:753 JLINK_WriteReg(PSP, 0x20001000)  returns 0x00 (0000ms, 0508ms total)
T40AC 001:753 JLINK_WriteReg(CFBP, 0x00000000)  returns 0x00 (0000ms, 0508ms total)
T40AC 001:753 JLINK_SetBPEx(Addr = 0x20000000, Type = 0xFFFFFFF2)  returns 0x00000008 (0000ms, 0508ms total)
T40AC 001:753 JLINK_Go() -- CPU_ReadMem(4 bytes @ 0xE0001000) (0003ms, 0511ms total)
T40AC 001:756 JLINK_IsHalted()  returns FALSE (0000ms, 0511ms total)
T40AC 001:826 JLINK_IsHalted() -- CPU_ReadMem(2 bytes @ 0x20000000)  returns TRUE (0003ms, 0514ms total)
T40AC 001:829 JLINK_ReadReg(R15 (PC))  returns 0x20000000 (0000ms, 0511ms total)
T40AC 001:829 JLINK_ClrBPEx(BPHandle = 0x00000008)  returns 0x00 (0000ms, 0511ms total)
T40AC 001:829 JLINK_ReadReg(R0)  returns 0x00000000 (0001ms, 0512ms total)
T40AC 001:830 JLINK_WriteMem(0x20000180, 0x0400 Bytes, ...) - Data: A8 BF 20 F8 02 2B A1 EB 0C 01 00 F0 0D B8 5F EA ... -- CPU_WriteMem(1024 bytes @ 0x20000180)  returns 0x400 (0013ms, 0525ms total)
T40AC 001:843 JLINK_WriteReg(R0, 0x08000400)  returns 0x00 (0000ms, 0525ms total)
T40AC 001:843 JLINK_WriteReg(R1, 0x00000400)  returns 0x00 (0000ms, 0525ms total)
T40AC 001:843 JLINK_WriteReg(R2, 0x20000180)  returns 0x00 (0000ms, 0525ms total)
T40AC 001:843 JLINK_WriteReg(R3, 0x00000000)  returns 0x00 (0000ms, 0525ms total)
T40AC 001:843 JLINK_WriteReg(R4, 0x00000000)  returns 0x00 (0000ms, 0525ms total)
T40AC 001:843 JLINK_WriteReg(R5, 0x00000000)  returns 0x00 (0000ms, 0525ms total)
T40AC 001:843 JLINK_WriteReg(R6, 0x00000000)  returns 0x00 (0001ms, 0526ms total)
T40AC 001:844 JLINK_WriteReg(R7, 0x00000000)  returns 0x00 (0000ms, 0526ms total)
T40AC 001:844 JLINK_WriteReg(R8, 0x00000000)  returns 0x00 (0000ms, 0526ms total)
T40AC 001:844 JLINK_WriteReg(R9, 0x2000017C)  returns 0x00 (0000ms, 0526ms total)
T40AC 001:844 JLINK_WriteReg(R10, 0x00000000)  returns 0x00 (0000ms, 0526ms total)
T40AC 001:844 JLINK_WriteReg(R11, 0x00000000)  returns 0x00 (0000ms, 0526ms total)
T40AC 001:844 JLINK_WriteReg(R12, 0x00000000)  returns 0x00 (0000ms, 0526ms total)
T40AC 001:844 JLINK_WriteReg(R13 (SP), 0x20001000)  returns 0x00 (0000ms, 0526ms total)
T40AC 001:844 JLINK_WriteReg(R14, 0x20000001)  returns 0x00 (0000ms, 0526ms total)
T40AC 001:844 JLINK_WriteReg(R15 (PC), 0x20000108)  returns 0x00 (0001ms, 0527ms total)
T40AC 001:845 JLINK_WriteReg(XPSR, 0x01000000)  returns 0x00 (0000ms, 0527ms total)
T40AC 001:845 JLINK_WriteReg(MSP, 0x20001000)  returns 0x00 (0000ms, 0527ms total)
T40AC 001:845 JLINK_WriteReg(PSP, 0x20001000)  returns 0x00 (0000ms, 0527ms total)
T40AC 001:845 JLINK_WriteReg(CFBP, 0x00000000)  returns 0x00 (0000ms, 0527ms total)
T40AC 001:845 JLINK_SetBPEx(Addr = 0x20000000, Type = 0xFFFFFFF2)  returns 0x00000009 (0000ms, 0527ms total)
T40AC 001:845 JLINK_Go() -- CPU_ReadMem(4 bytes @ 0xE0001000) (0002ms, 0529ms total)
T40AC 001:847 JLINK_IsHalted()  returns FALSE (0001ms, 0530ms total)
T40AC 001:850 JLINK_IsHalted()  returns FALSE (0000ms, 0529ms total)
T40AC 001:852 JLINK_IsHalted() -- CPU_ReadMem(2 bytes @ 0x20000000)  returns TRUE (0003ms, 0532ms total)
T40AC 001:856 JLINK_ReadReg(R15 (PC))  returns 0x20000000 (0000ms, 0529ms total)
T40AC 001:856 JLINK_ClrBPEx(BPHandle = 0x00000009)  returns 0x00 (0000ms, 0529ms total)
T40AC 001:856 JLINK_ReadReg(R0)  returns 0x00000000 (0000ms, 0529ms total)
T40AC 001:857 JLINK_WriteMem(0x20000180, 0x0400 Bytes, ...) - Data: 61 2A 80 ED 0E 1A 32 EE 01 2A 82 EE 22 3A 30 EE ... -- CPU_WriteMem(1024 bytes @ 0x20000180)  returns 0x400 (0012ms, 0541ms total)
T40AC 001:869 JLINK_WriteReg(R0, 0x08000800)  returns 0x00 (0000ms, 0541ms total)
T40AC 001:869 JLINK_WriteReg(R1, 0x00000400)  returns 0x00 (0000ms, 0541ms total)
T40AC 001:869 JLINK_WriteReg(R2, 0x20000180)  returns 0x00 (0000ms, 0541ms total)
T40AC 001:869 JLINK_WriteReg(R3, 0x00000000)  returns 0x00 (0001ms, 0542ms total)
T40AC 001:870 JLINK_WriteReg(R4, 0x00000000)  returns 0x00 (0000ms, 0542ms total)
T40AC 001:870 JLINK_WriteReg(R5, 0x00000000)  returns 0x00 (0000ms, 0542ms total)
T40AC 001:870 JLINK_WriteReg(R6, 0x00000000)  returns 0x00 (0000ms, 0542ms total)
T40AC 001:870 JLINK_WriteReg(R7, 0x00000000)  returns 0x00 (0000ms, 0542ms total)
T40AC 001:870 JLINK_WriteReg(R8, 0x00000000)  returns 0x00 (0000ms, 0542ms total)
T40AC 001:870 JLINK_WriteReg(R9, 0x2000017C)  returns 0x00 (0000ms, 0542ms total)
T40AC 001:870 JLINK_WriteReg(R10, 0x00000000)  returns 0x00 (0000ms, 0542ms total)
T40AC 001:870 JLINK_WriteReg(R11, 0x00000000)  returns 0x00 (0000ms, 0542ms total)
T40AC 001:870 JLINK_WriteReg(R12, 0x00000000)  returns 0x00 (0000ms, 0542ms total)
T40AC 001:870 JLINK_WriteReg(R13 (SP), 0x20001000)  returns 0x00 (0001ms, 0543ms total)
T40AC 001:871 JLINK_WriteReg(R14, 0x20000001)  returns 0x00 (0000ms, 0543ms total)
T40AC 001:871 JLINK_WriteReg(R15 (PC), 0x20000108)  returns 0x00 (0001ms, 0544ms total)
T40AC 001:872 JLINK_WriteReg(XPSR, 0x01000000)  returns 0x00 (0000ms, 0544ms total)
T40AC 001:872 JLINK_WriteReg(MSP, 0x20001000)  returns 0x00 (0000ms, 0544ms total)
T40AC 001:872 JLINK_WriteReg(PSP, 0x20001000)  returns 0x00 (0000ms, 0544ms total)
T40AC 001:872 JLINK_WriteReg(CFBP, 0x00000000)  returns 0x00 (0000ms, 0544ms total)
T40AC 001:872 JLINK_SetBPEx(Addr = 0x20000000, Type = 0xFFFFFFF2)  returns 0x0000000A (0000ms, 0544ms total)
T40AC 001:872 JLINK_Go() -- CPU_ReadMem(4 bytes @ 0xE0001000) (0002ms, 0546ms total)
T40AC 001:874 JLINK_IsHalted()  returns FALSE (0000ms, 0546ms total)
T40AC 001:879 JLINK_IsHalted() -- CPU_ReadMem(2 bytes @ 0x20000000)  returns TRUE (0003ms, 0549ms total)
T40AC 001:882 JLINK_ReadReg(R15 (PC))  returns 0x20000000 (0001ms, 0547ms total)
T40AC 001:883 JLINK_ClrBPEx(BPHandle = 0x0000000A)  returns 0x00 (0000ms, 0547ms total)
T40AC 001:883 JLINK_ReadReg(R0)  returns 0x00000000 (0000ms, 0547ms total)
T40AC 001:883 JLINK_WriteMem(0x20000180, 0x0400 Bytes, ...) - Data: 44 F4 00 74 C8 60 70 07 4F F0 08 07 07 D5 5F EA ... -- CPU_WriteMem(1024 bytes @ 0x20000180)  returns 0x400 (0013ms, 0560ms total)
T40AC 001:896 JLINK_WriteReg(R0, 0x08000C00)  returns 0x00 (0000ms, 0560ms total)
T40AC 001:897 JLINK_WriteReg(R1, 0x00000400)  returns 0x00 (0000ms, 0561ms total)
T40AC 001:897 JLINK_WriteReg(R2, 0x20000180)  returns 0x00 (0000ms, 0561ms total)
T40AC 001:897 JLINK_WriteReg(R3, 0x00000000)  returns 0x00 (0000ms, 0561ms total)
T40AC 001:897 JLINK_WriteReg(R4, 0x00000000)  returns 0x00 (0000ms, 0561ms total)
T40AC 001:897 JLINK_WriteReg(R5, 0x00000000)  returns 0x00 (0000ms, 0561ms total)
T40AC 001:897 JLINK_WriteReg(R6, 0x00000000)  returns 0x00 (0000ms, 0561ms total)
T40AC 001:897 JLINK_WriteReg(R7, 0x00000000)  returns 0x00 (0000ms, 0561ms total)
T40AC 001:897 JLINK_WriteReg(R8, 0x00000000)  returns 0x00 (0000ms, 0561ms total)
T40AC 001:897 JLINK_WriteReg(R9, 0x2000017C)  returns 0x00 (0000ms, 0561ms total)
T40AC 001:897 JLINK_WriteReg(R10, 0x00000000)  returns 0x00 (0000ms, 0561ms total)
T40AC 001:898 JLINK_WriteReg(R11, 0x00000000)  returns 0x00 (0000ms, 0562ms total)
T40AC 001:898 JLINK_WriteReg(R12, 0x00000000)  returns 0x00 (0000ms, 0562ms total)
T40AC 001:898 JLINK_WriteReg(R13 (SP), 0x20001000)  returns 0x00 (0000ms, 0562ms total)
T40AC 001:898 JLINK_WriteReg(R14, 0x20000001)  returns 0x00 (0000ms, 0562ms total)
T40AC 001:898 JLINK_WriteReg(R15 (PC), 0x20000108)  returns 0x00 (0000ms, 0562ms total)
T40AC 001:898 JLINK_WriteReg(XPSR, 0x01000000)  returns 0x00 (0000ms, 0562ms total)
T40AC 001:898 JLINK_WriteReg(MSP, 0x20001000)  returns 0x00 (0000ms, 0562ms total)
T40AC 001:899 JLINK_WriteReg(PSP, 0x20001000)  returns 0x00 (0000ms, 0562ms total)
T40AC 001:899 JLINK_WriteReg(CFBP, 0x00000000)  returns 0x00 (0000ms, 0562ms total)
T40AC 001:899 JLINK_SetBPEx(Addr = 0x20000000, Type = 0xFFFFFFF2)  returns 0x0000000B (0000ms, 0562ms total)
T40AC 001:899 JLINK_Go() -- CPU_ReadMem(4 bytes @ 0xE0001000) (0002ms, 0564ms total)
T40AC 001:901 JLINK_IsHalted()  returns FALSE (0001ms, 0565ms total)
T40AC 001:989 JLINK_IsHalted() -- CPU_ReadMem(2 bytes @ 0x20000000)  returns TRUE (0003ms, 0567ms total)
T40AC 001:992 JLINK_ReadReg(R15 (PC))  returns 0x20000000 (0001ms, 0565ms total)
T40AC 001:993 JLINK_ClrBPEx(BPHandle = 0x0000000B)  returns 0x00 (0000ms, 0565ms total)
T40AC 001:993 JLINK_ReadReg(R0)  returns 0x00000000 (0000ms, 0565ms total)
T40AC 001:994 JLINK_WriteMem(0x20000180, 0x0400 Bytes, ...) - Data: 85 ED 00 0A 6E 60 0A B0 70 BD BC EE C0 0A 10 EE ... -- CPU_WriteMem(1024 bytes @ 0x20000180)  returns 0x400 (0012ms, 0577ms total)
T40AC 002:006 JLINK_WriteReg(R0, 0x08001000)  returns 0x00 (0001ms, 0578ms total)
T40AC 002:007 JLINK_WriteReg(R1, 0x00000400)  returns 0x00 (0000ms, 0578ms total)
T40AC 002:007 JLINK_WriteReg(R2, 0x20000180)  returns 0x00 (0000ms, 0578ms total)
T40AC 002:007 JLINK_WriteReg(R3, 0x00000000)  returns 0x00 (0000ms, 0578ms total)
T40AC 002:007 JLINK_WriteReg(R4, 0x00000000)  returns 0x00 (0000ms, 0578ms total)
T40AC 002:008 JLINK_WriteReg(R5, 0x00000000)  returns 0x00 (0000ms, 0578ms total)
T40AC 002:008 JLINK_WriteReg(R6, 0x00000000)  returns 0x00 (0000ms, 0578ms total)
T40AC 002:008 JLINK_WriteReg(R7, 0x00000000)  returns 0x00 (0000ms, 0578ms total)
T40AC 002:008 JLINK_WriteReg(R8, 0x00000000)  returns 0x00 (0000ms, 0578ms total)
T40AC 002:008 JLINK_WriteReg(R9, 0x2000017C)  returns 0x00 (0000ms, 0578ms total)
T40AC 002:008 JLINK_WriteReg(R10, 0x00000000)  returns 0x00 (0000ms, 0578ms total)
T40AC 002:008 JLINK_WriteReg(R11, 0x00000000)  returns 0x00 (0000ms, 0578ms total)
T40AC 002:008 JLINK_WriteReg(R12, 0x00000000)  returns 0x00 (0000ms, 0578ms total)
T40AC 002:008 JLINK_WriteReg(R13 (SP), 0x20001000)  returns 0x00 (0001ms, 0579ms total)
T40AC 002:009 JLINK_WriteReg(R14, 0x20000001)  returns 0x00 (0000ms, 0579ms total)
T40AC 002:009 JLINK_WriteReg(R15 (PC), 0x20000108)  returns 0x00 (0000ms, 0579ms total)
T40AC 002:009 JLINK_WriteReg(XPSR, 0x01000000)  returns 0x00 (0000ms, 0579ms total)
T40AC 002:009 JLINK_WriteReg(MSP, 0x20001000)  returns 0x00 (0000ms, 0579ms total)
T40AC 002:009 JLINK_WriteReg(PSP, 0x20001000)  returns 0x00 (0000ms, 0579ms total)
T40AC 002:010 JLINK_WriteReg(CFBP, 0x00000000)  returns 0x00 (0000ms, 0580ms total)
T40AC 002:010 JLINK_SetBPEx(Addr = 0x20000000, Type = 0xFFFFFFF2)  returns 0x0000000C (0000ms, 0580ms total)
T40AC 002:010 JLINK_Go() -- CPU_ReadMem(4 bytes @ 0xE0001000) (0002ms, 0582ms total)
T40AC 002:012 JLINK_IsHalted()  returns FALSE (0001ms, 0583ms total)
T40AC 002:083 JLINK_IsHalted() -- CPU_ReadMem(2 bytes @ 0x20000000)  returns TRUE (0003ms, 0585ms total)
T40AC 002:086 JLINK_ReadReg(R15 (PC))  returns 0x20000000 (0000ms, 0582ms total)
T40AC 002:086 JLINK_ClrBPEx(BPHandle = 0x0000000C)  returns 0x00 (0001ms, 0583ms total)
T40AC 002:087 JLINK_ReadReg(R0)  returns 0x00000000 (0000ms, 0583ms total)
T40AC 002:088 JLINK_WriteMem(0x20000180, 0x0400 Bytes, ...) - Data: 0D E0 01 20 BD E8 F0 81 00 F0 4A F9 80 1B 05 28 ... -- CPU_WriteMem(1024 bytes @ 0x20000180)  returns 0x400 (0012ms, 0595ms total)
T40AC 002:100 JLINK_WriteReg(R0, 0x08001400)  returns 0x00 (0000ms, 0595ms total)
T40AC 002:100 JLINK_WriteReg(R1, 0x00000400)  returns 0x00 (0000ms, 0595ms total)
T40AC 002:100 JLINK_WriteReg(R2, 0x20000180)  returns 0x00 (0000ms, 0595ms total)
T40AC 002:100 JLINK_WriteReg(R3, 0x00000000)  returns 0x00 (0001ms, 0596ms total)
T40AC 002:101 JLINK_WriteReg(R4, 0x00000000)  returns 0x00 (0000ms, 0596ms total)
T40AC 002:101 JLINK_WriteReg(R5, 0x00000000)  returns 0x00 (0000ms, 0596ms total)
T40AC 002:101 JLINK_WriteReg(R6, 0x00000000)  returns 0x00 (0000ms, 0596ms total)
T40AC 002:101 JLINK_WriteReg(R7, 0x00000000)  returns 0x00 (0000ms, 0596ms total)
T40AC 002:101 JLINK_WriteReg(R8, 0x00000000)  returns 0x00 (0000ms, 0596ms total)
T40AC 002:101 JLINK_WriteReg(R9, 0x2000017C)  returns 0x00 (0000ms, 0596ms total)
T40AC 002:101 JLINK_WriteReg(R10, 0x00000000)  returns 0x00 (0000ms, 0596ms total)
T40AC 002:101 JLINK_WriteReg(R11, 0x00000000)  returns 0x00 (0000ms, 0596ms total)
T40AC 002:101 JLINK_WriteReg(R12, 0x00000000)  returns 0x00 (0000ms, 0596ms total)
T40AC 002:102 JLINK_WriteReg(R13 (SP), 0x20001000)  returns 0x00 (0000ms, 0597ms total)
T40AC 002:102 JLINK_WriteReg(R14, 0x20000001)  returns 0x00 (0000ms, 0597ms total)
T40AC 002:102 JLINK_WriteReg(R15 (PC), 0x20000108)  returns 0x00 (0000ms, 0597ms total)
T40AC 002:102 JLINK_WriteReg(XPSR, 0x01000000)  returns 0x00 (0000ms, 0597ms total)
T40AC 002:102 JLINK_WriteReg(MSP, 0x20001000)  returns 0x00 (0000ms, 0597ms total)
T40AC 002:102 JLINK_WriteReg(PSP, 0x20001000)  returns 0x00 (0000ms, 0597ms total)
T40AC 002:102 JLINK_WriteReg(CFBP, 0x00000000)  returns 0x00 (0000ms, 0597ms total)
T40AC 002:102 JLINK_SetBPEx(Addr = 0x20000000, Type = 0xFFFFFFF2)  returns 0x0000000D (0000ms, 0597ms total)
T40AC 002:102 JLINK_Go() -- CPU_ReadMem(4 bytes @ 0xE0001000) (0002ms, 0599ms total)
T40AC 002:105 JLINK_IsHalted()  returns FALSE (0000ms, 0600ms total)
T40AC 002:107 JLINK_IsHalted()  returns FALSE (0000ms, 0600ms total)
T40AC 002:109 JLINK_IsHalted() -- CPU_ReadMem(2 bytes @ 0x20000000)  returns TRUE (0003ms, 0603ms total)
T40AC 002:112 JLINK_ReadReg(R15 (PC))  returns 0x20000000 (0000ms, 0600ms total)
T40AC 002:112 JLINK_ClrBPEx(BPHandle = 0x0000000D)  returns 0x00 (0000ms, 0600ms total)
T40AC 002:113 JLINK_ReadReg(R0)  returns 0x00000000 (0000ms, 0601ms total)
T40AC 002:113 JLINK_WriteMem(0x20000180, 0x0400 Bytes, ...) - Data: D8 F8 00 00 00 F0 07 00 B0 42 54 D1 28 68 3D 4C ... -- CPU_WriteMem(1024 bytes @ 0x20000180)  returns 0x400 (0013ms, 0614ms total)
T40AC 002:126 JLINK_WriteReg(R0, 0x08001800)  returns 0x00 (0000ms, 0614ms total)
T40AC 002:126 JLINK_WriteReg(R1, 0x00000400)  returns 0x00 (0000ms, 0614ms total)
T40AC 002:126 JLINK_WriteReg(R2, 0x20000180)  returns 0x00 (0000ms, 0614ms total)
T40AC 002:126 JLINK_WriteReg(R3, 0x00000000)  returns 0x00 (0000ms, 0614ms total)
T40AC 002:126 JLINK_WriteReg(R4, 0x00000000)  returns 0x00 (0000ms, 0614ms total)
T40AC 002:126 JLINK_WriteReg(R5, 0x00000000)  returns 0x00 (0000ms, 0614ms total)
T40AC 002:126 JLINK_WriteReg(R6, 0x00000000)  returns 0x00 (0001ms, 0615ms total)
T40AC 002:127 JLINK_WriteReg(R7, 0x00000000)  returns 0x00 (0000ms, 0615ms total)
T40AC 002:127 JLINK_WriteReg(R8, 0x00000000)  returns 0x00 (0000ms, 0615ms total)
T40AC 002:127 JLINK_WriteReg(R9, 0x2000017C)  returns 0x00 (0000ms, 0615ms total)
T40AC 002:127 JLINK_WriteReg(R10, 0x00000000)  returns 0x00 (0000ms, 0615ms total)
T40AC 002:127 JLINK_WriteReg(R11, 0x00000000)  returns 0x00 (0000ms, 0615ms total)
T40AC 002:127 JLINK_WriteReg(R12, 0x00000000)  returns 0x00 (0000ms, 0615ms total)
T40AC 002:127 JLINK_WriteReg(R13 (SP), 0x20001000)  returns 0x00 (0000ms, 0615ms total)
T40AC 002:127 JLINK_WriteReg(R14, 0x20000001)  returns 0x00 (0000ms, 0615ms total)
T40AC 002:127 JLINK_WriteReg(R15 (PC), 0x20000108)  returns 0x00 (0001ms, 0616ms total)
T40AC 002:128 JLINK_WriteReg(XPSR, 0x01000000)  returns 0x00 (0000ms, 0616ms total)
T40AC 002:128 JLINK_WriteReg(MSP, 0x20001000)  returns 0x00 (0000ms, 0616ms total)
T40AC 002:128 JLINK_WriteReg(PSP, 0x20001000)  returns 0x00 (0000ms, 0616ms total)
T40AC 002:128 JLINK_WriteReg(CFBP, 0x00000000)  returns 0x00 (0000ms, 0616ms total)
T40AC 002:128 JLINK_SetBPEx(Addr = 0x20000000, Type = 0xFFFFFFF2)  returns 0x0000000E (0000ms, 0616ms total)
T40AC 002:128 JLINK_Go() -- CPU_ReadMem(4 bytes @ 0xE0001000) (0002ms, 0618ms total)
T40AC 002:130 JLINK_IsHalted()  returns FALSE (0001ms, 0619ms total)
T40AC 002:169 JLINK_IsHalted() -- CPU_ReadMem(2 bytes @ 0x20000000)  returns TRUE (0004ms, 0622ms total)
T40AC 002:173 JLINK_ReadReg(R15 (PC))  returns 0x20000000 (0000ms, 0618ms total)
T40AC 002:173 JLINK_ClrBPEx(BPHandle = 0x0000000E)  returns 0x00 (0000ms, 0618ms total)
T40AC 002:173 JLINK_ReadReg(R0)  returns 0x00000000 (0000ms, 0618ms total)
T40AC 002:173 JLINK_WriteMem(0x20000180, 0x0400 Bytes, ...) - Data: 30 68 80 07 F4 D4 2F B1 DB F8 00 10 21 F0 80 51 ... -- CPU_WriteMem(1024 bytes @ 0x20000180)  returns 0x400 (0012ms, 0630ms total)
T40AC 002:187 JLINK_WriteReg(R0, 0x08001C00)  returns 0x00 (0000ms, 0631ms total)
T40AC 002:187 JLINK_WriteReg(R1, 0x00000400)  returns 0x00 (0000ms, 0631ms total)
T40AC 002:187 JLINK_WriteReg(R2, 0x20000180)  returns 0x00 (0000ms, 0631ms total)
T40AC 002:187 JLINK_WriteReg(R3, 0x00000000)  returns 0x00 (0000ms, 0631ms total)
T40AC 002:187 JLINK_WriteReg(R4, 0x00000000)  returns 0x00 (0000ms, 0631ms total)
T40AC 002:187 JLINK_WriteReg(R5, 0x00000000)  returns 0x00 (0000ms, 0631ms total)
T40AC 002:187 JLINK_WriteReg(R6, 0x00000000)  returns 0x00 (0000ms, 0631ms total)
T40AC 002:187 JLINK_WriteReg(R7, 0x00000000)  returns 0x00 (0000ms, 0631ms total)
T40AC 002:187 JLINK_WriteReg(R8, 0x00000000)  returns 0x00 (0000ms, 0631ms total)
T40AC 002:187 JLINK_WriteReg(R9, 0x2000017C)  returns 0x00 (0000ms, 0631ms total)
T40AC 002:187 JLINK_WriteReg(R10, 0x00000000)  returns 0x00 (0000ms, 0631ms total)
T40AC 002:187 JLINK_WriteReg(R11, 0x00000000)  returns 0x00 (0000ms, 0631ms total)
T40AC 002:187 JLINK_WriteReg(R12, 0x00000000)  returns 0x00 (0000ms, 0631ms total)
T40AC 002:187 JLINK_WriteReg(R13 (SP), 0x20001000)  returns 0x00 (0000ms, 0631ms total)
T40AC 002:187 JLINK_WriteReg(R14, 0x20000001)  returns 0x00 (0001ms, 0632ms total)
T40AC 002:188 JLINK_WriteReg(R15 (PC), 0x20000108)  returns 0x00 (0000ms, 0632ms total)
T40AC 002:188 JLINK_WriteReg(XPSR, 0x01000000)  returns 0x00 (0000ms, 0632ms total)
T40AC 002:188 JLINK_WriteReg(MSP, 0x20001000)  returns 0x00 (0000ms, 0632ms total)
T40AC 002:188 JLINK_WriteReg(PSP, 0x20001000)  returns 0x00 (0000ms, 0632ms total)
T40AC 002:188 JLINK_WriteReg(CFBP, 0x00000000)  returns 0x00 (0000ms, 0632ms total)
T40AC 002:188 JLINK_SetBPEx(Addr = 0x20000000, Type = 0xFFFFFFF2)  returns 0x0000000F (0000ms, 0632ms total)
T40AC 002:188 JLINK_Go() -- CPU_ReadMem(4 bytes @ 0xE0001000) (0002ms, 0634ms total)
T40AC 002:190 JLINK_IsHalted()  returns FALSE (0001ms, 0635ms total)
T40AC 002:193 JLINK_IsHalted()  returns FALSE (0000ms, 0634ms total)
T40AC 002:195 JLINK_IsHalted() -- CPU_ReadMem(2 bytes @ 0x20000000)  returns TRUE (0004ms, 0638ms total)
T40AC 002:199 JLINK_ReadReg(R15 (PC))  returns 0x20000000 (0000ms, 0634ms total)
T40AC 002:199 JLINK_ClrBPEx(BPHandle = 0x0000000F)  returns 0x00 (0000ms, 0634ms total)
T40AC 002:199 JLINK_ReadReg(R0)  returns 0x00000000 (0000ms, 0634ms total)
